(1599402863.919497) vcan0 00000888#023438
(1599402863.928062) vcan0 799#0134
(1599402863.929622) vcan0 00000888#023438
(1599402863.938213) vcan0 799#0135
(1599402863.939764) vcan0 00000888#023438
(1599402863.947651) vcan0 00002226#0130
(1599402863.948335) vcan0 799#0136
(1599402863.949885) vcan0 00000888#023438
(1599402863.953759) vcan0 00002225#023139
(1599402863.954761) vcan0 350#023236
(1599402863.954930) vcan0 055#023733
(1599402863.958477) vcan0 799#0136
(1599402863.960005) vcan0 00000888#023438
(1599402863.968606) vcan0 799#0136
(1599402863.970133) vcan0 00000888#023438
(1599402863.975657) vcan0 00003071#0131
(1599402863.975842) vcan0 002#0130
(1599402863.978720) vcan0 799#0136
(1599402863.980254) vcan0 00000888#023438
(1599402863.988850) vcan0 799#0134
(1599402863.990400) vcan0 00000888#023438
(1599402863.998966) vcan0 799#0133
(1599402864.000526) vcan0 00000888#023438
(1599402864.008736) vcan0 642#102034382E313437
(1599402864.008745) vcan0 00001337#300000
(1599402864.008754) vcan0 642#2136373439353330
(1599402864.008762) vcan0 642#2236322C31312E35
(1599402864.008770) vcan0 642#2334373433353035
(1599402864.008777) vcan0 642#243933383339
(1599402864.009116) vcan0 799#0134
(1599402864.010653) vcan0 00000888#023438
(1599402864.019264) vcan0 799#0133
(1599402864.020789) vcan0 00000888#023438
(1599402864.029399) vcan0 799#0132
(1599402864.030906) vcan0 00000888#023438
(1599402864.039538) vcan0 799#0131
(1599402864.041030) vcan0 00000888#023438
(1599402864.042096) vcan0 090#0131
(1599402864.044339) vcan0 00002224#0130
(1599402864.049649) vcan0 799#0131
(1599402864.051172) vcan0 00000888#023438
(1599402864.053930) vcan0 00002225#023139
(1599402864.054923) vcan0 350#0432362E35
(1599402864.055096) vcan0 055#023736
(1599402864.055800) vcan0 00003071#0132
(1599402864.055967) vcan0 002#0130
(1599402864.059769) vcan0 799#0132
(1599402864.061313) vcan0 00000888#023438
(1599402864.069896) vcan0 799#0133
(1599402864.071472) vcan0 00000888#023438
(1599402864.080015) vcan0 799#0131
(1599402864.081594) vcan0 00000888#023438
(1599402864.090135) vcan0 799#0132
(1599402864.091711) vcan0 00000888#023438
(1599402864.100274) vcan0 799#0133
(1599402864.101845) vcan0 00000888#023438
(1599402864.105020) vcan0 00002048#0130
(1599402864.110419) vcan0 799#0134
(1599402864.111943) vcan0 00000888#023438
(1599402864.120544) vcan0 799#0135
(1599402864.122061) vcan0 00000888#023438
(1599402864.130691) vcan0 799#0136
(1599402864.132175) vcan0 00000888#023438
(1599402864.135982) vcan0 00003071#0131
(1599402864.136175) vcan0 002#0130
(1599402864.140821) vcan0 799#0136
(1599402864.142328) vcan0 00000888#023438
(1599402864.150954) vcan0 799#0136
(1599402864.152456) vcan0 00000888#023438
(1599402864.154115) vcan0 00002225#023139
(1599402864.155089) vcan0 350#023237
(1599402864.155264) vcan0 055#023730
(1599402864.161067) vcan0 799#0136
(1599402864.162603) vcan0 00000888#023438
(1599402864.171223) vcan0 799#0134
(1599402864.172741) vcan0 00000888#023438
(1599402864.174545) vcan0 00002224#03302E35
(1599402864.181354) vcan0 799#0133
(1599402864.182866) vcan0 00000888#023438
(1599402864.191476) vcan0 799#0134
(1599402864.192983) vcan0 00000888#023438
(1599402864.201605) vcan0 799#0133
(1599402864.203107) vcan0 00000888#023438
(1599402864.209140) vcan0 642#102134382E313437
(1599402864.209150) vcan0 00001337#300000
(1599402864.209159) vcan0 642#2139303430323139
(1599402864.209167) vcan0 642#223533332C31312E
(1599402864.209176) vcan0 642#2335363031333830
(1599402864.209183) vcan0 642#24303132373834
(1599402864.211735) vcan0 799#0132
(1599402864.213230) vcan0 00000888#023438
(1599402864.216145) vcan0 00003071#0132
(1599402864.216356) vcan0 002#0130
(1599402864.221847) vcan0 799#0131
(1599402864.223356) vcan0 00000888#023438
(1599402864.231945) vcan0 799#0131
(1599402864.233475) vcan0 00000888#023438
(1599402864.242074) vcan0 799#0132
(1599402864.243600) vcan0 00000888#023438
(1599402864.247986) vcan0 00002226#0130
(1599402864.252206) vcan0 799#0133
(1599402864.253722) vcan0 00000888#023438
(1599402864.254287) vcan0 00002225#023139
(1599402864.255263) vcan0 350#023236
(1599402864.255458) vcan0 055#0437352E35
(1599402864.262350) vcan0 799#0131
(1599402864.263868) vcan0 00000888#023438
(1599402864.272474) vcan0 799#0132
(1599402864.273997) vcan0 00000888#023438
(1599402864.282593) vcan0 799#0133
(1599402864.284112) vcan0 00000888#023438
(1599402864.292710) vcan0 799#0134
(1599402864.294245) vcan0 00000888#023438
(1599402864.296295) vcan0 00003071#0131
(1599402864.296500) vcan0 002#0130
(1599402864.302832) vcan0 799#0135
(1599402864.304389) vcan0 00000888#023438
(1599402864.304752) vcan0 00002224#0131
(1599402864.305301) vcan0 00002048#0131
(1599402864.312962) vcan0 799#0136
(1599402864.314513) vcan0 00000888#023438
(1599402864.323090) vcan0 799#0136
(1599402864.324635) vcan0 00000888#023438
(1599402864.333230) vcan0 799#0136
(1599402864.334786) vcan0 00000888#023438
(1599402864.343398) vcan0 799#0136
(1599402864.344104) vcan0 043#022701
(1599402864.344726) vcan0 042#037F2711
(1599402864.344911) vcan0 00000888#023438
(1599402864.353548) vcan0 799#0134
(1599402864.354475) vcan0 00002225#023139
(1599402864.355043) vcan0 00000888#023438
(1599402864.355466) vcan0 350#023231
(1599402864.355655) vcan0 055#023733
(1599402864.363683) vcan0 799#0133
(1599402864.365192) vcan0 00000888#023438
(1599402864.373812) vcan0 799#0134
(1599402864.375367) vcan0 00000888#023438
(1599402864.376464) vcan0 00003071#0132
(1599402864.376649) vcan0 002#0130
(1599402864.383580) vcan0 101#0130
(1599402864.383931) vcan0 799#0133
(1599402864.385492) vcan0 00000888#023438
(1599402864.394060) vcan0 799#0132
(1599402864.395608) vcan0 00000888#023438
(1599402864.404185) vcan0 799#0131
(1599402864.405759) vcan0 00000888#023438
(1599402864.409539) vcan0 642#102134382E313332
(1599402864.409548) vcan0 00001337#300000
(1599402864.409557) vcan0 642#2133323530303832
(1599402864.409565) vcan0 642#223434392C31312E
(1599402864.409573) vcan0 642#2335363031333830
(1599402864.409580) vcan0 642#24303132373834
(1599402864.414341) vcan0 799#0131
(1599402864.415885) vcan0 00000888#023438
(1599402864.424464) vcan0 799#0132
(1599402864.426142) vcan0 00000888#023438
(1599402864.434583) vcan0 799#0133
(1599402864.434957) vcan0 00002224#0130
(1599402864.436270) vcan0 00000888#023438
(1599402864.444709) vcan0 799#0131
(1599402864.446416) vcan0 00000888#023438
(1599402864.454657) vcan0 00002225#023139
(1599402864.454835) vcan0 799#0132
(1599402864.455633) vcan0 350#023233
(1599402864.455815) vcan0 055#023736
(1599402864.456538) vcan0 00000888#023438
(1599402864.456600) vcan0 00003071#0131
(1599402864.456852) vcan0 002#0130
(1599402864.464962) vcan0 799#0133
(1599402864.466664) vcan0 00000888#023438
(1599402864.475098) vcan0 799#0134
(1599402864.476782) vcan0 00000888#023438
(1599402864.485217) vcan0 799#0135
(1599402864.486900) vcan0 00000888#023438
(1599402864.495336) vcan0 799#0136
(1599402864.497027) vcan0 00000888#023438
(1599402864.505471) vcan0 799#0136
(1599402864.505527) vcan0 00002048#0130
(1599402864.507162) vcan0 00000888#023438
(1599402864.515592) vcan0 799#0136
(1599402864.517288) vcan0 00000888#023438
(1599402864.525712) vcan0 799#0136
(1599402864.527423) vcan0 00000888#023438
(1599402864.535856) vcan0 799#0134
(1599402864.536749) vcan0 00003071#0132
(1599402864.536997) vcan0 002#0130
(1599402864.537550) vcan0 00000888#023438
(1599402864.542667) vcan0 090#0131
(1599402864.545977) vcan0 799#0133
(1599402864.547670) vcan0 00000888#023438
(1599402864.548417) vcan0 00002226#0130
(1599402864.554821) vcan0 00002225#023139
(1599402864.555796) vcan0 350#023236
(1599402864.556003) vcan0 055#023730
(1599402864.556096) vcan0 799#0134
(1599402864.557795) vcan0 00000888#023438
(1599402864.565168) vcan0 00002224#0130
(1599402864.566227) vcan0 799#0133
(1599402864.567938) vcan0 00000888#023438
(1599402864.576350) vcan0 799#0132
(1599402864.578062) vcan0 00000888#023438
(1599402864.586472) vcan0 799#0131
(1599402864.588182) vcan0 00000888#023438
(1599402864.596592) vcan0 799#0131
(1599402864.598317) vcan0 00000888#023438
(1599402864.603411) vcan0 00003655#023130
(1599402864.606706) vcan0 799#0132
(1599402864.608445) vcan0 00000888#023438
(1599402864.609920) vcan0 642#102134382E313332
(1599402864.609929) vcan0 00001337#300000
(1599402864.609939) vcan0 642#2133323530303832
(1599402864.609947) vcan0 642#223434392C31312E
(1599402864.609955) vcan0 642#2335333734373836
(1599402864.609962) vcan0 642#24393935323036
(1599402864.616836) vcan0 799#0133
(1599402864.616887) vcan0 00003071#0131
(1599402864.617140) vcan0 002#0130
(1599402864.618571) vcan0 00000888#023438
(1599402864.626973) vcan0 799#0131
(1599402864.628700) vcan0 00000888#023438
(1599402864.637106) vcan0 799#0132
(1599402864.638827) vcan0 00000888#023438
(1599402864.647267) vcan0 799#0133
(1599402864.648945) vcan0 00000888#023438
(1599402864.654992) vcan0 00002225#023139
(1599402864.655947) vcan0 350#0432362E35
(1599402864.656167) vcan0 055#0437352E35
(1599402864.657411) vcan0 799#0134
(1599402864.659068) vcan0 00000888#023438
(1599402864.667558) vcan0 799#0135
(1599402864.669210) vcan0 00000888#023438
(1599402864.677695) vcan0 799#0136
(1599402864.679329) vcan0 00000888#023438
(1599402864.687817) vcan0 799#0136
(1599402864.689450) vcan0 00000888#023438
(1599402864.695397) vcan0 00002224#03302E35
(1599402864.697026) vcan0 00003071#0132
(1599402864.697283) vcan0 002#0130
(1599402864.697926) vcan0 799#0136
(1599402864.699587) vcan0 00000888#023438
(1599402864.705823) vcan0 00002048#0131
(1599402864.708039) vcan0 799#0136
(1599402864.709711) vcan0 00000888#023438
(1599402864.718179) vcan0 799#0134
(1599402864.719829) vcan0 00000888#023438
(1599402864.728298) vcan0 799#0133
(1599402864.729957) vcan0 00000888#023438
(1599402864.738434) vcan0 799#0134
(1599402864.740080) vcan0 00000888#023438
(1599402864.748555) vcan0 799#0133
(1599402864.750208) vcan0 00000888#023438
(1599402864.755183) vcan0 00002225#023139
(1599402864.756132) vcan0 350#023237
(1599402864.756345) vcan0 055#023733
(1599402864.756406) vcan0 00004982#06313931303734
(1599402864.758686) vcan0 799#0132
(1599402864.760328) vcan0 00000888#023438
(1599402864.768815) vcan0 799#0131
(1599402864.770460) vcan0 00000888#023438
(1599402864.777179) vcan0 00003071#0131
(1599402864.777433) vcan0 002#0130
(1599402864.778927) vcan0 799#0131
(1599402864.780583) vcan0 00000888#023438
(1599402864.789045) vcan0 799#0132
(1599402864.790701) vcan0 00000888#023438
(1599402864.799162) vcan0 799#0133
(1599402864.800816) vcan0 00000888#023438
(1599402864.803982) vcan0 00005997#0432313132
(1599402864.809285) vcan0 799#0131
(1599402864.810315) vcan0 642#102134382E313633
(1599402864.810324) vcan0 00001337#300000
(1599402864.810334) vcan0 642#2130323033303832
(1599402864.810342) vcan0 642#223733372C31312E
(1599402864.810349) vcan0 642#2335333731333533
(1599402864.810356) vcan0 642#24373637363637
(1599402864.810941) vcan0 00000888#023438
(1599402864.819443) vcan0 799#0132
(1599402864.821061) vcan0 00000888#023438
(1599402864.825600) vcan0 00002224#0131
(1599402864.829574) vcan0 799#0133
(1599402864.831201) vcan0 00000888#023438
(1599402864.839714) vcan0 799#0134
(1599402864.841335) vcan0 00000888#023438
(1599402864.848793) vcan0 00002226#0130
(1599402864.849830) vcan0 799#0135
(1599402864.851456) vcan0 00000888#023438
(1599402864.855356) vcan0 00002225#023139
(1599402864.856306) vcan0 350#023236
(1599402864.856508) vcan0 055#023736
(1599402864.857348) vcan0 00003071#0132
(1599402864.857574) vcan0 002#0130
(1599402864.859967) vcan0 799#0136
(1599402864.861579) vcan0 00000888#023438
(1599402864.870095) vcan0 799#0136
(1599402864.871703) vcan0 00000888#023438
(1599402864.880230) vcan0 799#0136
(1599402864.881821) vcan0 00000888#023438
(1599402864.890391) vcan0 799#0136
(1599402864.891943) vcan0 00000888#023438
(1599402864.900515) vcan0 799#0134
(1599402864.902072) vcan0 00000888#023438
(1599402864.906120) vcan0 00002048#0130
(1599402864.910624) vcan0 799#0133
(1599402864.912202) vcan0 00000888#023438
(1599402864.920741) vcan0 799#0134
(1599402864.922319) vcan0 00000888#023438
(1599402864.930869) vcan0 799#0133
(1599402864.932433) vcan0 00000888#023438
(1599402864.937510) vcan0 00003071#0131
(1599402864.937718) vcan0 002#0130
(1599402864.940983) vcan0 799#0132
(1599402864.942558) vcan0 00000888#023438
(1599402864.951104) vcan0 799#0131
(1599402864.952677) vcan0 00000888#023438
(1599402864.955529) vcan0 00002225#023139
(1599402864.955795) vcan0 00002224#0130
(1599402864.956470) vcan0 350#023231
(1599402864.956671) vcan0 055#023730
(1599402864.961234) vcan0 799#0131
(1599402864.962801) vcan0 00000888#023438
(1599402864.971374) vcan0 799#0132
(1599402864.972929) vcan0 00000888#023438
(1599402864.981496) vcan0 799#0133
(1599402864.983049) vcan0 00000888#023438
(1599402864.991630) vcan0 799#0131
(1599402864.993166) vcan0 00000888#023438
(1599402865.001765) vcan0 799#0132
(1599402865.003292) vcan0 00000888#023438
(1599402865.010697) vcan0 642#102134382E313632
(1599402865.010707) vcan0 00001337#300000
(1599402865.010716) vcan0 642#2137393133303638
(1599402865.010723) vcan0 642#223539352C31312E
(1599402865.010731) vcan0 642#2335353235383439
(1599402865.010738) vcan0 642#24303036393235
(1599402865.011907) vcan0 799#0133
(1599402865.013425) vcan0 00000888#023438
(1599402865.017661) vcan0 00003071#0132
(1599402865.017861) vcan0 002#0130
(1599402865.022025) vcan0 799#0134
(1599402865.023548) vcan0 00000888#023438
(1599402865.032140) vcan0 799#0135
(1599402865.033669) vcan0 00000888#023438
(1599402865.042270) vcan0 799#0136
(1599402865.043234) vcan0 090#0131
(1599402865.043796) vcan0 00000888#023438
(1599402865.052399) vcan0 799#0136
(1599402865.053914) vcan0 00000888#023438
(1599402865.055727) vcan0 00002225#023139
(1599402865.056633) vcan0 350#023233
(1599402865.056861) vcan0 055#0437352E35
(1599402865.062525) vcan0 799#0136
(1599402865.064044) vcan0 00000888#023438
(1599402865.072649) vcan0 799#0136
(1599402865.074170) vcan0 00000888#023438
(1599402865.082768) vcan0 799#0134
(1599402865.084313) vcan0 00000888#023438
(1599402865.085996) vcan0 00002224#0130
(1599402865.092882) vcan0 799#0133
(1599402865.094434) vcan0 00000888#023438
(1599402865.097811) vcan0 00003071#0131
(1599402865.098003) vcan0 002#0130
(1599402865.103008) vcan0 799#0134
(1599402865.104558) vcan0 00000888#023438
(1599402865.106405) vcan0 00002048#0131
(1599402865.113140) vcan0 799#0133
(1599402865.114680) vcan0 00000888#023438
(1599402865.123279) vcan0 799#0132
(1599402865.124799) vcan0 00000888#023438
(1599402865.133411) vcan0 799#0131
(1599402865.134937) vcan0 00000888#023438
(1599402865.143551) vcan0 799#0131
(1599402865.145076) vcan0 00000888#023438
(1599402865.145162) vcan0 00003920#023432
(1599402865.149181) vcan0 00002226#0130
(1599402865.153663) vcan0 799#0132
(1599402865.155200) vcan0 00000888#023438
(1599402865.155908) vcan0 00002225#023139
(1599402865.156798) vcan0 350#023236
(1599402865.157024) vcan0 055#023733
(1599402865.163792) vcan0 799#0133
(1599402865.165390) vcan0 00000888#023438
(1599402865.173932) vcan0 799#0131
(1599402865.175515) vcan0 00000888#023438
(1599402865.177978) vcan0 00003071#0132
(1599402865.178176) vcan0 002#0130
(1599402865.184044) vcan0 799#0132
(1599402865.185638) vcan0 00000888#023438
(1599402865.194207) vcan0 799#0133
(1599402865.195774) vcan0 00000888#023438
(1599402865.204367) vcan0 799#0134
(1599402865.205899) vcan0 00000888#023438
(1599402865.211088) vcan0 642#102134382E313633
(1599402865.211097) vcan0 00001337#300000
(1599402865.211106) vcan0 642#2132343933303836
(1599402865.211114) vcan0 642#223635352C31312E
(1599402865.211122) vcan0 642#2335333734373836
(1599402865.211129) vcan0 642#24393935323036
(1599402865.214496) vcan0 799#0135
(1599402865.216027) vcan0 00000888#023438
(1599402865.216249) vcan0 00002224#03302E35
(1599402865.224609) vcan0 799#0136
(1599402865.226151) vcan0 00000888#023438
(1599402865.234726) vcan0 799#0136
(1599402865.236267) vcan0 00000888#023438
(1599402865.244856) vcan0 799#0136
(1599402865.246422) vcan0 00000888#023438
(1599402865.254977) vcan0 799#0136
(1599402865.256071) vcan0 00002225#023139
(1599402865.256545) vcan0 00000888#023438
(1599402865.256969) vcan0 350#0432362E35
(1599402865.257187) vcan0 055#023736
(1599402865.258140) vcan0 00003071#0131
(1599402865.258335) vcan0 002#0130
(1599402865.265109) vcan0 799#0134
(1599402865.266682) vcan0 00000888#023438
(1599402865.275250) vcan0 799#0133
(1599402865.276815) vcan0 00000888#023438
(1599402865.285395) vcan0 799#0134
(1599402865.286938) vcan0 00000888#023438
(1599402865.295512) vcan0 799#0133
(1599402865.297054) vcan0 00000888#023438
(1599402865.305642) vcan0 799#0132
(1599402865.306673) vcan0 00002048#0130
(1599402865.307198) vcan0 00000888#023438
(1599402865.315761) vcan0 799#0131
(1599402865.317335) vcan0 00000888#023438
(1599402865.325893) vcan0 799#0131
(1599402865.327471) vcan0 00000888#023438
(1599402865.336010) vcan0 799#0132
(1599402865.337589) vcan0 00000888#023438
(1599402865.338302) vcan0 00003071#0132
(1599402865.338504) vcan0 002#0130
(1599402865.346169) vcan0 799#0133
(1599402865.346447) vcan0 00002224#0131
(1599402865.347725) vcan0 00000888#023438
(1599402865.356243) vcan0 00002225#023139
(1599402865.356289) vcan0 799#0131
(1599402865.357134) vcan0 350#023237
(1599402865.357370) vcan0 055#023730
(1599402865.357882) vcan0 00000888#023438
(1599402865.363968) vcan0 101#0130
(1599402865.366405) vcan0 799#0132
(1599402865.368005) vcan0 00000888#023438
(1599402865.376533) vcan0 799#0133
(1599402865.378128) vcan0 00000888#023438
(1599402865.386653) vcan0 799#0134
(1599402865.388245) vcan0 00000888#023438
(1599402865.396791) vcan0 799#0135
(1599402865.398392) vcan0 00000888#023438
(1599402865.406919) vcan0 799#0136
(1599402865.408520) vcan0 00000888#023438
(1599402865.411484) vcan0 642#102134382E313331
(1599402865.411493) vcan0 00001337#300000
(1599402865.411502) vcan0 642#2138363637333033
(1599402865.411509) vcan0 642#223837372C31312E
(1599402865.411518) vcan0 642#2335333734373836
(1599402865.411524) vcan0 642#24393935323036
(1599402865.417058) vcan0 799#0136
(1599402865.418448) vcan0 00003071#0131
(1599402865.418648) vcan0 00000888#023438
(1599402865.418710) vcan0 002#0130
(1599402865.427195) vcan0 799#0136
(1599402865.428785) vcan0 00000888#023438
(1599402865.437321) vcan0 799#0136
(1599402865.438941) vcan0 00000888#023438
(1599402865.447454) vcan0 799#0134
(1599402865.449060) vcan0 00000888#023438
(1599402865.449555) vcan0 00002226#0130
(1599402865.456406) vcan0 00002225#023139
(1599402865.457308) vcan0 350#023236
(1599402865.457550) vcan0 055#0437352E35
(1599402865.457594) vcan0 799#0133
(1599402865.459182) vcan0 00000888#023438
(1599402865.467716) vcan0 799#0134
(1599402865.469337) vcan0 00000888#023438
(1599402865.476665) vcan0 00002224#0130
(1599402865.477855) vcan0 799#0133
(1599402865.479458) vcan0 00000888#023438
(1599402865.487960) vcan0 799#0132
(1599402865.489592) vcan0 00000888#023438
(1599402865.498075) vcan0 799#0131
(1599402865.498589) vcan0 00003071#0132
(1599402865.498865) vcan0 002#0130
(1599402865.499711) vcan0 00000888#023438
(1599402865.506975) vcan0 00002048#0131
(1599402865.508196) vcan0 799#0131
(1599402865.509836) vcan0 00000888#023438
(1599402865.518324) vcan0 799#0132
(1599402865.519939) vcan0 00000888#023438
(1599402865.528450) vcan0 799#0133
(1599402865.530056) vcan0 00000888#023438
(1599402865.538580) vcan0 799#0131
(1599402865.540178) vcan0 00000888#023438
(1599402865.543808) vcan0 090#0131
(1599402865.548695) vcan0 799#0132
(1599402865.550300) vcan0 00000888#023438
(1599402865.556591) vcan0 00002225#023139
(1599402865.557477) vcan0 350#023231
(1599402865.557711) vcan0 055#023733
(1599402865.558821) vcan0 799#0133
(1599402865.560420) vcan0 00000888#023438
(1599402865.568976) vcan0 799#0134
(1599402865.570548) vcan0 00000888#023438
(1599402865.578778) vcan0 00003071#0131
(1599402865.579008) vcan0 002#0130
(1599402865.579175) vcan0 799#0135
(1599402865.580671) vcan0 00000888#023438
(1599402865.589297) vcan0 799#0136
(1599402865.590788) vcan0 00000888#023438
(1599402865.599418) vcan0 799#0136
(1599402865.600904) vcan0 00000888#023438
(1599402865.603962) vcan0 00003655#023230
(1599402865.606862) vcan0 00002224#0130
(1599402865.609545) vcan0 799#0136
(1599402865.611032) vcan0 00000888#023438
(1599402865.611884) vcan0 642#102134382E313332
(1599402865.611899) vcan0 00001337#300000
(1599402865.611911) vcan0 642#2135353431343536
(1599402865.611919) vcan0 642#223339382C31312E
(1599402865.611927) vcan0 642#2335363539373434
(1599402865.611934) vcan0 642#24383830393438
(1599402865.619674) vcan0 799#0136
(1599402865.621157) vcan0 00000888#023438
(1599402865.629796) vcan0 799#0134
(1599402865.631291) vcan0 00000888#023438
(1599402865.639943) vcan0 799#0133
(1599402865.641415) vcan0 00000888#023438
(1599402865.650082) vcan0 799#0134
(1599402865.651533) vcan0 00000888#023438
(1599402865.656782) vcan0 00002225#023139
(1599402865.657643) vcan0 350#023233
(1599402865.657873) vcan0 055#023736
(1599402865.658922) vcan0 00003071#0132
(1599402865.659150) vcan0 002#0130
(1599402865.660195) vcan0 799#0133
(1599402865.661658) vcan0 00000888#023438
(1599402865.670349) vcan0 799#0132
(1599402865.671784) vcan0 00000888#023438
(1599402865.680474) vcan0 799#0131
(1599402865.681905) vcan0 00000888#023438
(1599402865.690595) vcan0 799#0131
(1599402865.692020) vcan0 00000888#023438
(1599402865.700712) vcan0 799#0132
(1599402865.702137) vcan0 00000888#023438
(1599402865.707260) vcan0 00002048#0130
(1599402865.710838) vcan0 799#0133
(1599402865.712258) vcan0 00000888#023438
(1599402865.720955) vcan0 799#0131
(1599402865.722380) vcan0 00000888#023438
(1599402865.731072) vcan0 799#0132
(1599402865.732507) vcan0 00000888#023438
(1599402865.737062) vcan0 00002224#03302E35
(1599402865.739073) vcan0 00003071#0131
(1599402865.739292) vcan0 002#0130
(1599402865.741181) vcan0 799#0133
(1599402865.742632) vcan0 00000888#023438
(1599402865.749927) vcan0 00002226#0130
(1599402865.751291) vcan0 799#0134
(1599402865.752768) vcan0 00000888#023438
(1599402865.756959) vcan0 00002225#023139
(1599402865.757811) vcan0 350#023236
(1599402865.758049) vcan0 055#023730
(1599402865.761402) vcan0 799#0135
(1599402865.762901) vcan0 00000888#023438
(1599402865.771551) vcan0 799#0136
(1599402865.773041) vcan0 00000888#023438
(1599402865.781690) vcan0 799#0136
(1599402865.783172) vcan0 00000888#023438
(1599402865.791835) vcan0 799#0136
(1599402865.793289) vcan0 00000888#023438
(1599402865.801952) vcan0 799#0136
(1599402865.803405) vcan0 00000888#023438
(1599402865.812077) vcan0 799#0134
(1599402865.812538) vcan0 642#102134382E313633
(1599402865.812548) vcan0 00001337#300000
(1599402865.812558) vcan0 642#2139333633303337
(1599402865.812565) vcan0 642#223036382C31312E
(1599402865.812574) vcan0 642#2335363439343435
(1599402865.812583) vcan0 642#24313938333331
(1599402865.813534) vcan0 00000888#023438
(1599402865.819241) vcan0 00003071#0132
(1599402865.819460) vcan0 002#0130
(1599402865.822189) vcan0 799#0133
(1599402865.823669) vcan0 00000888#023438
(1599402865.832312) vcan0 799#0134
(1599402865.833787) vcan0 00000888#023438
(1599402865.842452) vcan0 799#0133
(1599402865.843944) vcan0 00000888#023438
(1599402865.852573) vcan0 799#0132
(1599402865.854062) vcan0 00000888#023438
(1599402865.857157) vcan0 00002225#023139
(1599402865.857978) vcan0 350#0432362E35
(1599402865.858211) vcan0 055#0437352E35
(1599402865.862682) vcan0 799#0131
(1599402865.864182) vcan0 00000888#023438
(1599402865.867277) vcan0 00002224#0131
(1599402865.872792) vcan0 799#0131
(1599402865.874313) vcan0 00000888#023438
(1599402865.882910) vcan0 799#0132
(1599402865.884433) vcan0 00000888#023438
(1599402865.893041) vcan0 799#0133
(1599402865.894551) vcan0 00000888#023438
(1599402865.899392) vcan0 00003071#0131
(1599402865.899603) vcan0 002#0130
(1599402865.903175) vcan0 799#0131
(1599402865.904690) vcan0 00000888#023438
(1599402865.907542) vcan0 00002048#0131
(1599402865.913306) vcan0 799#0132
(1599402865.914813) vcan0 00000888#023438
(1599402865.923434) vcan0 799#0133
(1599402865.924945) vcan0 00000888#023438
(1599402865.933550) vcan0 799#0134
(1599402865.935079) vcan0 00000888#023438
(1599402865.943687) vcan0 799#0135
(1599402865.945206) vcan0 00000888#023438
(1599402865.953827) vcan0 799#0136
(1599402865.955350) vcan0 00000888#023438
(1599402865.957360) vcan0 00002225#023139
(1599402865.958144) vcan0 350#023237
(1599402865.958375) vcan0 055#023733
(1599402865.963954) vcan0 799#0136
(1599402865.965476) vcan0 00000888#023438
(1599402865.974093) vcan0 799#0136
(1599402865.975604) vcan0 00000888#023438
(1599402865.979543) vcan0 00003071#0132
(1599402865.979748) vcan0 002#0130
(1599402865.984204) vcan0 799#0136
(1599402865.985762) vcan0 00000888#023438
(1599402865.994327) vcan0 799#0134
(1599402865.995882) vcan0 00000888#023438
(1599402865.997480) vcan0 00002224#0130
(1599402866.004468) vcan0 799#0133
(1599402866.006153) vcan0 00000888#023438
(1599402866.012974) vcan0 642#102134382E313633
(1599402866.012984) vcan0 00001337#300000
(1599402866.012993) vcan0 642#2139333633303337
(1599402866.013002) vcan0 642#223036382C31312E
(1599402866.013010) vcan0 642#2335373933363430
(1599402866.013018) vcan0 642#24373534393732
(1599402866.014601) vcan0 799#0134
(1599402866.016277) vcan0 00000888#023438
(1599402866.024723) vcan0 799#0133
(1599402866.026402) vcan0 00000888#023438
(1599402866.034841) vcan0 799#0132
(1599402866.036521) vcan0 00000888#023438
(1599402866.043970) vcan0 090#0131
(1599402866.044973) vcan0 799#0131
(1599402866.046647) vcan0 00000888#023438
(1599402866.050306) vcan0 00002226#0130
(1599402866.055103) vcan0 799#0131
(1599402866.056772) vcan0 00000888#023438
(1599402866.057533) vcan0 00002225#023139
(1599402866.058317) vcan0 350#023236
(1599402866.058540) vcan0 055#023736
(1599402866.059686) vcan0 00003071#0131
(1599402866.059917) vcan0 002#0130
(1599402866.065233) vcan0 799#0132
(1599402866.066938) vcan0 00000888#023438
(1599402866.072418) vcan0 043#022701
(1599402866.073006) vcan0 042#037F2711
(1599402866.075376) vcan0 799#0133
(1599402866.077086) vcan0 00000888#023438
(1599402866.085516) vcan0 799#0131
(1599402866.087236) vcan0 00000888#023438
(1599402866.095637) vcan0 799#0132
(1599402866.097355) vcan0 00000888#023438
(1599402866.105769) vcan0 799#0133
(1599402866.107481) vcan0 00000888#023438
(1599402866.107814) vcan0 00002048#0130
(1599402866.115909) vcan0 799#0134
(1599402866.117603) vcan0 00000888#023438
(1599402866.126037) vcan0 799#0135
(1599402866.127691) vcan0 00002224#0130
(1599402866.127748) vcan0 00000888#023438
(1599402866.136152) vcan0 799#0136
(1599402866.137861) vcan0 00000888#023438
(1599402866.139849) vcan0 00003071#0132
(1599402866.140063) vcan0 002#0130
(1599402866.146321) vcan0 799#0136
(1599402866.147975) vcan0 00000888#023438
(1599402866.156445) vcan0 799#0136
(1599402866.157717) vcan0 00002225#023139
(1599402866.158111) vcan0 00000888#023438
(1599402866.158488) vcan0 350#023231
(1599402866.158703) vcan0 055#023730
(1599402866.166585) vcan0 799#0136
(1599402866.168238) vcan0 00000888#023438
(1599402866.176712) vcan0 799#0134
(1599402866.178362) vcan0 00000888#023438
(1599402866.186830) vcan0 799#0133
(1599402866.188481) vcan0 00000888#023438
(1599402866.196970) vcan0 799#0134
(1599402866.198602) vcan0 00000888#023438
(1599402866.207099) vcan0 799#0133
(1599402866.208729) vcan0 00000888#023438
(1599402866.213366) vcan0 642#102134382E313531
(1599402866.213375) vcan0 00001337#300000
(1599402866.213384) vcan0 642#2131313038373930
(1599402866.213391) vcan0 642#223739312C31312E
(1599402866.213399) vcan0 642#2335373933363430
(1599402866.213406) vcan0 642#24373534393732
(1599402866.217245) vcan0 799#0132
(1599402866.218858) vcan0 00000888#023438
(1599402866.219959) vcan0 00003071#0131
(1599402866.220208) vcan0 002#0130
(1599402866.227359) vcan0 799#0131
(1599402866.228997) vcan0 00000888#023438
(1599402866.237482) vcan0 799#0131
(1599402866.239147) vcan0 00000888#023438
(1599402866.247612) vcan0 799#0132
(1599402866.249270) vcan0 00000888#023438
(1599402866.257742) vcan0 799#0133
(1599402866.257918) vcan0 00002225#023139
(1599402866.257965) vcan0 00002224#03302E35
(1599402866.258653) vcan0 350#023233
(1599402866.258865) vcan0 055#0437352E35
(1599402866.259400) vcan0 00000888#023438
(1599402866.267871) vcan0 799#0131
(1599402866.269524) vcan0 00000888#023438
(1599402866.277992) vcan0 799#0132
(1599402866.279643) vcan0 00000888#023438
(1599402866.288109) vcan0 799#0133
(1599402866.289760) vcan0 00000888#023438
(1599402866.298241) vcan0 799#0134
(1599402866.299886) vcan0 00000888#023438
(1599402866.300108) vcan0 00003071#0132
(1599402866.300349) vcan0 002#0130
(1599402866.307998) vcan0 00002048#0131
(1599402866.308356) vcan0 799#0135
(1599402866.310151) vcan0 00000888#023438
(1599402866.318479) vcan0 799#0136
(1599402866.320288) vcan0 00000888#023438
(1599402866.328601) vcan0 799#0136
(1599402866.330407) vcan0 00000888#023438
(1599402866.338730) vcan0 799#0136
(1599402866.340550) vcan0 00000888#023438
(1599402866.345029) vcan0 101#0131
(1599402866.348873) vcan0 799#0136
(1599402866.350671) vcan0 00002226#0130
(1599402866.350731) vcan0 00000888#023438
(1599402866.358094) vcan0 00002225#023139
(1599402866.358815) vcan0 350#023236
(1599402866.359003) vcan0 799#0134
(1599402866.359049) vcan0 055#023733
(1599402866.360848) vcan0 00000888#023438
(1599402866.369130) vcan0 799#0133
(1599402866.370993) vcan0 00000888#023438
(1599402866.379255) vcan0 799#0134
(1599402866.380250) vcan0 00003071#0131
(1599402866.380492) vcan0 002#0130
(1599402866.381115) vcan0 00000888#023438
(1599402866.388161) vcan0 00002224#0131
(1599402866.389371) vcan0 799#0133
(1599402866.391253) vcan0 00000888#023438
(1599402866.399507) vcan0 799#0132
(1599402866.401377) vcan0 00000888#023438
(1599402866.409664) vcan0 799#0131
(1599402866.411502) vcan0 00000888#023438
(1599402866.413771) vcan0 642#102134382E313530
(1599402866.413780) vcan0 00001337#300000
(1599402866.413788) vcan0 642#2138383138323435
(1599402866.413797) vcan0 642#223031352C31312E
(1599402866.413804) vcan0 642#2335363432353738
(1599402866.413811) vcan0 642#24373433323533
(1599402866.419803) vcan0 799#0131
(1599402866.421624) vcan0 00000888#023438
(1599402866.429927) vcan0 799#0132
(1599402866.431742) vcan0 00000888#023438
(1599402866.440044) vcan0 799#0133
(1599402866.441881) vcan0 00000888#023438
(1599402866.450180) vcan0 799#0131
(1599402866.451997) vcan0 00000888#023438
(1599402866.458274) vcan0 00002225#023139
(1599402866.458980) vcan0 350#0432362E35
(1599402866.459208) vcan0 055#023736
(1599402866.460294) vcan0 799#0132
(1599402866.460462) vcan0 00003071#0132
(1599402866.460636) vcan0 002#0130
(1599402866.462122) vcan0 00000888#023438
(1599402866.470423) vcan0 799#0133
(1599402866.472245) vcan0 00000888#023438
(1599402866.480544) vcan0 799#0134
(1599402866.482371) vcan0 00000888#023438
(1599402866.490660) vcan0 799#0135
(1599402866.492489) vcan0 00000888#023438
(1599402866.500787) vcan0 799#0136
(1599402866.502605) vcan0 00000888#023438
(1599402866.508288) vcan0 00002048#0130
(1599402866.510909) vcan0 799#0136
(1599402866.512730) vcan0 00000888#023438
(1599402866.518367) vcan0 00002224#0130
(1599402866.521037) vcan0 799#0136
(1599402866.522862) vcan0 00000888#023438
(1599402866.531165) vcan0 799#0136
(1599402866.532988) vcan0 00000888#023438
(1599402866.540624) vcan0 00003071#0131
(1599402866.540821) vcan0 002#0130
(1599402866.541311) vcan0 799#0134
(1599402866.543130) vcan0 00000888#023438
(1599402866.544545) vcan0 090#0131
(1599402866.551425) vcan0 799#0133
(1599402866.553253) vcan0 00000888#023438
(1599402866.558447) vcan0 00002225#023139
(1599402866.559144) vcan0 350#023237
(1599402866.559372) vcan0 055#023730
(1599402866.561538) vcan0 799#0134
(1599402866.563390) vcan0 00000888#023438
(1599402866.571688) vcan0 799#0133
(1599402866.573516) vcan0 00000888#023438
(1599402866.581809) vcan0 799#0132
(1599402866.583647) vcan0 00000888#023438
(1599402866.591933) vcan0 799#0131
(1599402866.593763) vcan0 00000888#023438
(1599402866.602049) vcan0 799#0131
(1599402866.603879) vcan0 00000888#023438
(1599402866.605038) vcan0 00003655#023231
(1599402866.612194) vcan0 799#0132
(1599402866.614154) vcan0 642#102134382E313332
(1599402866.614163) vcan0 00001337#300000
(1599402866.614171) vcan0 642#2130393538363938
(1599402866.614180) vcan0 642#223237352C31312E
(1599402866.614187) vcan0 642#2335363539373434
(1599402866.614194) vcan0 642#24383830393438
(1599402866.614262) vcan0 00000888#023438
(1599402866.620788) vcan0 00003071#0132
(1599402866.620996) vcan0 002#0130
(1599402866.622327) vcan0 799#0133
(1599402866.624398) vcan0 00000888#023438
(1599402866.632446) vcan0 799#0131
(1599402866.634516) vcan0 00000888#023438
(1599402866.642574) vcan0 799#0132
(1599402866.644639) vcan0 00000888#023438
(1599402866.648569) vcan0 00002224#0130
(1599402866.651052) vcan0 00002226#0130
(1599402866.652701) vcan0 799#0133
(1599402866.654762) vcan0 00000888#023438
(1599402866.658628) vcan0 00002225#023139
(1599402866.659308) vcan0 350#023236
(1599402866.659534) vcan0 055#0437352E35
(1599402866.662810) vcan0 799#0134
(1599402866.664884) vcan0 00000888#023438
(1599402866.672960) vcan0 799#0135
(1599402866.675028) vcan0 00000888#023438
(1599402866.683094) vcan0 799#0136
(1599402866.685146) vcan0 00000888#023438
(1599402866.693213) vcan0 799#0136
(1599402866.695271) vcan0 00000888#023438
(1599402866.700952) vcan0 00003071#0131
(1599402866.701139) vcan0 002#0130
(1599402866.703325) vcan0 799#0136
(1599402866.705391) vcan0 00000888#023438
(1599402866.708581) vcan0 00002048#0131
(1599402866.713447) vcan0 799#0136
(1599402866.715514) vcan0 00000888#023438
(1599402866.723564) vcan0 799#0134
(1599402866.725631) vcan0 00000888#023438
(1599402866.733684) vcan0 799#0133
(1599402866.735748) vcan0 00000888#023438
(1599402866.743829) vcan0 799#0134
(1599402866.745892) vcan0 00000888#023438
(1599402866.753960) vcan0 799#0133
(1599402866.756011) vcan0 00000888#023438
(1599402866.758837) vcan0 00002225#023139
(1599402866.759475) vcan0 350#023231
(1599402866.759697) vcan0 055#023733
(1599402866.764068) vcan0 799#0132
(1599402866.766134) vcan0 00000888#023438
(1599402866.774201) vcan0 799#0131
(1599402866.776266) vcan0 00000888#023438
(1599402866.778774) vcan0 00002224#03302E35
(1599402866.781106) vcan0 00003071#0132
(1599402866.781283) vcan0 002#0130
(1599402866.784317) vcan0 799#0131
(1599402866.786391) vcan0 00000888#023438
(1599402866.794447) vcan0 799#0132
(1599402866.796533) vcan0 00000888#023438
(1599402866.804613) vcan0 799#0133
(1599402866.806663) vcan0 00000888#023438
(1599402866.814532) vcan0 642#102134382E313332
(1599402866.814542) vcan0 00001337#300000
(1599402866.814550) vcan0 642#2137383332383230
(1599402866.814558) vcan0 642#223132322C31312E
(1599402866.814566) vcan0 642#2336303634383635
(1599402866.814573) vcan0 642#24373330353538
(1599402866.814926) vcan0 799#0131
(1599402866.816789) vcan0 00000888#023438
(1599402866.825074) vcan0 799#0132
(1599402866.826907) vcan0 00000888#023438
(1599402866.835192) vcan0 799#0133
(1599402866.837040) vcan0 00000888#023438
(1599402866.840465) vcan0 043#022701
(1599402866.841072) vcan0 042#037F2711
(1599402866.845333) vcan0 799#0134
(1599402866.847195) vcan0 00000888#023438
(1599402866.855458) vcan0 799#0135
(1599402866.857316) vcan0 00000888#023438
(1599402866.859039) vcan0 00002225#023139
(1599402866.859659) vcan0 350#023233
(1599402866.859864) vcan0 055#023736
(1599402866.861268) vcan0 00003071#0131
(1599402866.861442) vcan0 002#0130
(1599402866.865570) vcan0 799#0136
(1599402866.867462) vcan0 00000888#023438
(1599402866.875711) vcan0 799#0136
(1599402866.877599) vcan0 00000888#023438
(1599402866.885830) vcan0 799#0136
(1599402866.887720) vcan0 00000888#023438
(1599402866.895948) vcan0 799#0136
(1599402866.897837) vcan0 00000888#023438
(1599402866.906082) vcan0 799#0134
(1599402866.907949) vcan0 00000888#023438
(1599402866.908857) vcan0 00002048#0130
(1599402866.908907) vcan0 00002224#0131
(1599402866.916191) vcan0 799#0133
(1599402866.918070) vcan0 00000888#023438
(1599402866.926306) vcan0 799#0134
(1599402866.928195) vcan0 00000888#023438
(1599402866.936423) vcan0 799#0133
(1599402866.938311) vcan0 00000888#023438
(1599402866.941463) vcan0 00003071#0132
(1599402866.941672) vcan0 002#0130
(1599402866.946533) vcan0 799#0132
(1599402866.948435) vcan0 00000888#023438
(1599402866.951426) vcan0 00002226#0130
(1599402866.956643) vcan0 799#0131
(1599402866.958558) vcan0 00000888#023438
(1599402866.959219) vcan0 00002225#023139
(1599402866.959841) vcan0 350#023236
(1599402866.960041) vcan0 055#023730
(1599402866.966771) vcan0 799#0131
(1599402866.968687) vcan0 00000888#023438
(1599402866.976911) vcan0 799#0132
(1599402866.978813) vcan0 00000888#023438
(1599402866.987033) vcan0 799#0133
(1599402866.988930) vcan0 00000888#023438
(1599402866.997152) vcan0 799#0131
(1599402866.999063) vcan0 00000888#023438
(1599402867.007294) vcan0 799#0132
(1599402867.009215) vcan0 00000888#023438
(1599402867.014923) vcan0 642#102134382E313530
(1599402867.014932) vcan0 00001337#300000
(1599402867.014941) vcan0 642#2138383138323435
(1599402867.014949) vcan0 642#223031352C31312E
(1599402867.014957) vcan0 642#2336303434323636
(1599402867.014963) vcan0 642#24333635333233
(1599402867.017433) vcan0 799#0133
(1599402867.019346) vcan0 00000888#023438
(1599402867.021618) vcan0 00003071#0131
(1599402867.021836) vcan0 002#0130
(1599402867.027542) vcan0 799#0134
(1599402867.029468) vcan0 00000888#023438
(1599402867.037671) vcan0 799#0135
(1599402867.039097) vcan0 00002224#0130
(1599402867.039589) vcan0 00000888#023438
(1599402867.045146) vcan0 090#0131
(1599402867.047785) vcan0 799#0136
(1599402867.049714) vcan0 00000888#023438
(1599402867.057906) vcan0 799#0136
(1599402867.059395) vcan0 00002225#023139
(1599402867.059832) vcan0 00000888#023438
(1599402867.060022) vcan0 350#0432362E35
(1599402867.060208) vcan0 055#0437352E35
(1599402867.068027) vcan0 799#0136
(1599402867.069977) vcan0 00000888#023438
(1599402867.078146) vcan0 799#0136
(1599402867.080094) vcan0 00000888#023438
(1599402867.088268) vcan0 799#0134
(1599402867.090239) vcan0 00000888#023438
(1599402867.098385) vcan0 799#0133
(1599402867.100367) vcan0 00000888#023438
(1599402867.101769) vcan0 00003071#0132
(1599402867.101978) vcan0 002#0130
(1599402867.108504) vcan0 799#0134
(1599402867.109123) vcan0 00002048#0131
(1599402867.110491) vcan0 00000888#023438
(1599402867.118624) vcan0 799#0133
(1599402867.120613) vcan0 00000888#023438
(1599402867.128741) vcan0 799#0132
(1599402867.130758) vcan0 00000888#023438
(1599402867.138870) vcan0 799#0131
(1599402867.140873) vcan0 00000888#023438
(1599402867.148999) vcan0 799#0131
(1599402867.150997) vcan0 00000888#023438
(1599402867.159118) vcan0 799#0132
(1599402867.159569) vcan0 00002225#023139
(1599402867.160182) vcan0 350#023237
(1599402867.160378) vcan0 055#023733
(1599402867.161136) vcan0 00000888#023438
(1599402867.169285) vcan0 799#0133
(1599402867.169340) vcan0 00002224#0130
(1599402867.171269) vcan0 00000888#023438
(1599402867.179411) vcan0 799#0131
(1599402867.181386) vcan0 00000888#023438
(1599402867.181920) vcan0 00003071#0131
(1599402867.182119) vcan0 002#0130
(1599402867.189523) vcan0 799#0132
(1599402867.191531) vcan0 00000888#023438
(1599402867.199647) vcan0 799#0133
(1599402867.201662) vcan0 00000888#023438
